!Agilent Technologies,N5230A,MY45000582,A.07.50.67
!Agilent N5230A: A.07.50.67
!Date: Thursday, November 14, 2019 10:12:19
!Correction: S11(Full 2 Port(1,2)) 
!S21(Full 2 Port(1,2)) 
!S12(Full 2 Port(1,2)) 
!S22(Full 2 Port(1,2)) 
!S2P File: Measurements: S11, S21, S12, S22:
# Hz S  dB   R 50
600000000 -4.283635e+000 -6.551575e+001 -4.517068e+001 1.026610e+002 -4.605501e+001 1.034610e+002 -4.417000e+000 -7.040302e+001
601000000 -4.299619e+000 -6.566570e+001 -4.608210e+001 8.987146e+001 -4.646551e+001 9.284756e+001 -4.434669e+000 -7.024747e+001
602000000 -4.300717e+000 -6.594725e+001 -4.665540e+001 8.081442e+001 -4.711872e+001 8.475246e+001 -4.458586e+000 -6.998999e+001
603000000 -4.289207e+000 -6.627776e+001 -4.712451e+001 7.685883e+001 -4.742113e+001 7.940732e+001 -4.454233e+000 -6.971564e+001
604000000 -4.282131e+000 -6.640366e+001 -4.759233e+001 7.197487e+001 -4.752136e+001 7.468948e+001 -4.437567e+000 -6.940843e+001
605000000 -4.281301e+000 -6.651625e+001 -4.767796e+001 6.378922e+001 -4.732344e+001 6.653992e+001 -4.403326e+000 -6.918899e+001
606000000 -4.241082e+000 -6.695707e+001 -4.790112e+001 5.712922e+001 -4.699595e+001 5.535057e+001 -4.379555e+000 -6.908576e+001
607000000 -4.220092e+000 -6.735757e+001 -4.803798e+001 4.578561e+001 -4.689574e+001 4.234037e+001 -4.343936e+000 -6.901735e+001
608000000 -4.200030e+000 -6.762891e+001 -4.817531e+001 3.566745e+001 -4.741382e+001 2.872688e+001 -4.304514e+000 -6.892445e+001
609000000 -4.201212e+000 -6.795113e+001 -4.889349e+001 2.098510e+001 -4.838432e+001 1.203055e+001 -4.274168e+000 -6.890522e+001
610000000 -4.196754e+000 -6.813393e+001 -5.099506e+001 6.311043e+000 -5.025035e+001 -4.959692e+000 -4.228579e+000 -6.900766e+001
611000000 -4.184173e+000 -6.824263e+001 -5.272128e+001 -4.007817e+000 -5.351480e+001 -1.847149e+001 -4.204364e+000 -6.914241e+001
612000000 -4.166379e+000 -6.835535e+001 -5.520926e+001 -1.769585e+001 -5.669197e+001 -2.347316e+001 -4.188370e+000 -6.917191e+001
613000000 -4.157395e+000 -6.827171e+001 -5.816119e+001 -9.801168e+000 -6.050131e+001 -1.978094e+001 -4.158535e+000 -6.922155e+001
614000000 -4.129336e+000 -6.828220e+001 -6.177547e+001 2.705764e+000 -6.412221e+001 7.171736e+000 -4.125376e+000 -6.928911e+001
615000000 -4.109357e+000 -6.837190e+001 -6.697095e+001 3.001769e+001 -6.689061e+001 4.575640e+001 -4.092701e+000 -6.946928e+001
616000000 -4.086227e+000 -6.846964e+001 -6.065444e+001 6.522017e+001 -6.103264e+001 8.139402e+001 -4.059842e+000 -6.960069e+001
617000000 -4.074243e+000 -6.852107e+001 -5.621820e+001 7.517446e+001 -5.605403e+001 7.599369e+001 -4.048227e+000 -6.980973e+001
618000000 -4.072422e+000 -6.842184e+001 -5.266190e+001 6.516875e+001 -5.196236e+001 6.774934e+001 -4.041458e+000 -6.995042e+001
619000000 -4.100595e+000 -6.853873e+001 -4.979720e+001 4.533793e+001 -4.929636e+001 5.134183e+001 -4.031349e+000 -7.005301e+001
620000000 -4.122841e+000 -6.873489e+001 -4.798718e+001 2.793552e+001 -4.737907e+001 3.130304e+001 -4.019124e+000 -7.012334e+001
621000000 -4.162103e+000 -6.874159e+001 -4.675607e+001 9.205548e+000 -4.580738e+001 1.122092e+001 -4.003782e+000 -7.020486e+001
622000000 -4.201128e+000 -6.872404e+001 -4.611951e+001 -1.291206e+001 -4.542965e+001 -1.451924e+001 -3.988626e+000 -7.024171e+001
623000000 -4.256041e+000 -6.874422e+001 -4.718114e+001 -3.596711e+001 -4.594885e+001 -3.837851e+001 -3.965292e+000 -7.033287e+001
624000000 -4.303424e+000 -6.883862e+001 -4.841860e+001 -5.489162e+001 -4.792216e+001 -6.089273e+001 -3.938622e+000 -7.044037e+001
625000000 -4.358560e+000 -6.893051e+001 -5.101897e+001 -6.548648e+001 -5.079895e+001 -7.333168e+001 -3.914592e+000 -7.063018e+001
626000000 -4.405574e+000 -6.878433e+001 -5.405975e+001 -6.534341e+001 -5.390564e+001 -7.406290e+001 -3.890935e+000 -7.078467e+001
627000000 -4.433505e+000 -6.871151e+001 -5.482146e+001 -5.593802e+001 -5.517594e+001 -6.195272e+001 -3.876491e+000 -7.096964e+001
628000000 -4.431028e+000 -6.876614e+001 -5.249748e+001 -5.088693e+001 -5.321493e+001 -5.415749e+001 -3.861111e+000 -7.107711e+001
629000000 -4.416079e+000 -6.878300e+001 -5.059392e+001 -6.278597e+001 -5.155490e+001 -6.366895e+001 -3.836439e+000 -7.113297e+001
630000000 -4.376070e+000 -6.877996e+001 -4.971313e+001 -8.012090e+001 -5.036612e+001 -7.548942e+001 -3.804756e+000 -7.124016e+001
631000000 -4.330329e+000 -6.882667e+001 -4.952993e+001 -9.437923e+001 -4.992501e+001 -9.113785e+001 -3.764735e+000 -7.146040e+001
632000000 -4.261529e+000 -6.884169e+001 -4.934105e+001 -1.124891e+002 -4.978392e+001 -1.093666e+002 -3.737170e+000 -7.174723e+001
633000000 -4.193864e+000 -6.909348e+001 -5.092090e+001 -1.334657e+002 -5.098036e+001 -1.261586e+002 -3.708138e+000 -7.215622e+001
634000000 -4.119219e+000 -6.916061e+001 -5.327105e+001 -1.451956e+002 -5.313469e+001 -1.387944e+002 -3.700219e+000 -7.260683e+001
635000000 -4.051491e+000 -6.912431e+001 -5.558700e+001 -1.474692e+002 -5.506407e+001 -1.430330e+002 -3.701726e+000 -7.309064e+001
636000000 -3.991897e+000 -6.912192e+001 -5.661526e+001 -1.400748e+002 -5.631940e+001 -1.400358e+002 -3.728944e+000 -7.349447e+001
637000000 -3.933607e+000 -6.913725e+001 -5.730982e+001 -1.255465e+002 -5.684148e+001 -1.341910e+002 -3.763548e+000 -7.386283e+001
638000000 -3.870284e+000 -6.901049e+001 -5.640063e+001 -1.177419e+002 -5.655915e+001 -1.255594e+002 -3.809110e+000 -7.409264e+001
639000000 -3.797447e+000 -6.885981e+001 -5.371215e+001 -1.204031e+002 -5.365557e+001 -1.245501e+002 -3.848080e+000 -7.421310e+001
640000000 -3.724112e+000 -6.874576e+001 -5.149289e+001 -1.318046e+002 -5.164215e+001 -1.369385e+002 -3.866785e+000 -7.425902e+001
641000000 -3.642736e+000 -6.890183e+001 -5.015763e+001 -1.471538e+002 -5.071006e+001 -1.474954e+002 -3.888314e+000 -7.434527e+001
642000000 -3.588514e+000 -6.932693e+001 -4.896698e+001 -1.607755e+002 -4.963516e+001 -1.602528e+002 -3.895548e+000 -7.440824e+001
643000000 -3.546298e+000 -6.969346e+001 -4.834552e+001 -1.762454e+002 -4.890812e+001 -1.743126e+002 -3.899600e+000 -7.456541e+001
644000000 -3.534598e+000 -7.011192e+001 -4.767978e+001 1.675919e+002 -4.814368e+001 1.706973e+002 -3.906923e+000 -7.471294e+001
645000000 -3.529503e+000 -7.056374e+001 -4.780513e+001 1.510588e+002 -4.744408e+001 1.544410e+002 -3.916326e+000 -7.488485e+001
646000000 -3.554463e+000 -7.117857e+001 -4.729962e+001 1.301113e+002 -4.712206e+001 1.360550e+002 -3.935799e+000 -7.509018e+001
647000000 -3.586001e+000 -7.171740e+001 -4.830066e+001 1.091290e+002 -4.734541e+001 1.140476e+002 -3.959455e+000 -7.529708e+001
648000000 -3.616201e+000 -7.204460e+001 -4.978329e+001 8.729575e+001 -4.853805e+001 9.157742e+001 -4.002989e+000 -7.544997e+001
649000000 -3.630664e+000 -7.237553e+001 -5.309064e+001 6.835429e+001 -5.131524e+001 6.792638e+001 -4.042785e+000 -7.546069e+001
650000000 -3.688754e+000 -7.281666e+001 -5.933120e+001 6.419688e+001 -5.669362e+001 6.310070e+001 -4.081026e+000 -7.539903e+001
651000000 -3.728474e+000 -7.324645e+001 -6.147869e+001 1.224637e+002 -5.955489e+001 1.101312e+002 -4.106847e+000 -7.529913e+001
652000000 -3.745327e+000 -7.359036e+001 -5.457523e+001 1.207810e+002 -5.360008e+001 1.175015e+002 -4.110071e+000 -7.524760e+001
653000000 -3.780228e+000 -7.375571e+001 -5.144810e+001 1.129553e+002 -5.087669e+001 1.008799e+002 -4.128906e+000 -7.521552e+001
654000000 -3.811716e+000 -7.396723e+001 -4.930623e+001 9.614801e+001 -5.017817e+001 8.537949e+001 -4.138154e+000 -7.522858e+001
655000000 -3.820869e+000 -7.419364e+001 -4.892307e+001 7.787977e+001 -4.940281e+001 7.305875e+001 -4.155199e+000 -7.508008e+001
656000000 -3.834387e+000 -7.424804e+001 -4.808584e+001 6.507615e+001 -4.932556e+001 6.132352e+001 -4.170453e+000 -7.503563e+001
657000000 -3.853563e+000 -7.417210e+001 -4.820626e+001 5.264734e+001 -4.952624e+001 5.083418e+001 -4.183200e+000 -7.487502e+001
658000000 -3.847379e+000 -7.423930e+001 -4.844054e+001 4.072269e+001 -4.907506e+001 4.163025e+001 -4.185025e+000 -7.477862e+001
659000000 -3.843056e+000 -7.439610e+001 -4.830985e+001 2.927876e+001 -4.884320e+001 3.412666e+001 -4.176957e+000 -7.472272e+001
660000000 -3.834481e+000 -7.434328e+001 -4.741166e+001 1.735549e+001 -4.810989e+001 2.528395e+001 -4.167177e+000 -7.454804e+001
661000000 -3.840568e+000 -7.418678e+001 -4.770511e+001 1.101926e+001 -4.698040e+001 1.595554e+001 -4.150321e+000 -7.450842e+001
662000000 -3.850304e+000 -7.399867e+001 -4.644744e+001 -3.764180e+000 -4.638282e+001 2.445449e-001 -4.145449e+000 -7.448957e+001
663000000 -3.847955e+000 -7.395130e+001 -4.704461e+001 -2.277452e+001 -4.614538e+001 -1.661625e+001 -4.132626e+000 -7.451631e+001
664000000 -3.871646e+000 -7.380126e+001 -4.745519e+001 -3.734163e+001 -4.651750e+001 -3.508716e+001 -4.136651e+000 -7.451530e+001
665000000 -3.905403e+000 -7.357096e+001 -4.861082e+001 -5.444845e+001 -4.777985e+001 -5.269480e+001 -4.149491e+000 -7.446230e+001
666000000 -3.949179e+000 -7.311832e+001 -5.096116e+001 -5.741549e+001 -4.985489e+001 -6.328758e+001 -4.151317e+000 -7.431651e+001
667000000 -3.989927e+000 -7.258352e+001 -5.224042e+001 -5.916238e+001 -5.110275e+001 -6.299320e+001 -4.145829e+000 -7.416829e+001
668000000 -4.028497e+000 -7.231782e+001 -5.245332e+001 -5.765447e+001 -5.197540e+001 -6.671063e+001 -4.137690e+000 -7.400718e+001
669000000 -3.962015e+000 -7.299412e+001 -5.197092e+001 -5.563250e+001 -5.205885e+001 -6.701286e+001 -4.117961e+000 -7.375554e+001
670000000 -3.986109e+000 -7.298544e+001 -5.174425e+001 -6.045058e+001 -5.187481e+001 -6.632554e+001 -4.081116e+000 -7.352337e+001
671000000 -3.987945e+000 -7.318288e+001 -5.115726e+001 -6.355366e+001 -5.159289e+001 -7.080800e+001 -4.030706e+000 -7.340559e+001
672000000 -3.977031e+000 -7.339757e+001 -4.982950e+001 -7.349810e+001 -5.087057e+001 -7.477929e+001 -3.977355e+000 -7.337770e+001
673000000 -3.982106e+000 -7.366220e+001 -4.960175e+001 -8.497360e+001 -5.017243e+001 -8.375018e+001 -3.935414e+000 -7.350903e+001
674000000 -3.993763e+000 -7.382549e+001 -4.987064e+001 -9.975983e+001 -5.021367e+001 -9.576765e+001 -3.912485e+000 -7.366074e+001
675000000 -3.937493e+000 -7.388297e+001 -4.954014e+001 -1.100302e+002 -5.015669e+001 -1.075524e+002 -3.912136e+000 -7.374186e+001
676000000 -3.896920e+000 -7.392704e+001 -5.087178e+001 -1.268246e+002 -5.055602e+001 -1.220112e+002 -3.900327e+000 -7.367012e+001
677000000 -3.865850e+000 -7.419349e+001 -5.262556e+001 -1.379535e+002 -5.286734e+001 -1.349302e+002 -3.878159e+000 -7.356543e+001
678000000 -3.818643e+000 -7.431650e+001 -5.577778e+001 -1.322067e+002 -5.668525e+001 -1.336049e+002 -3.842094e+000 -7.347516e+001
679000000 -3.760536e+000 -7.425839e+001 -5.852385e+001 -1.083330e+002 -5.816665e+001 -1.054746e+002 -3.797480e+000 -7.341429e+001
680000000 -3.722026e+000 -7.452829e+001 -5.511445e+001 -9.066134e+001 -5.424592e+001 -8.848775e+001 -3.769425e+000 -7.348830e+001
681000000 -3.696251e+000 -7.466133e+001 -5.199581e+001 -9.386610e+001 -5.128294e+001 -9.591460e+001 -3.722815e+000 -7.363402e+001
682000000 -3.672973e+000 -7.466084e+001 -4.969738e+001 -1.013095e+002 -4.923148e+001 -1.082450e+002 -3.683134e+000 -7.359980e+001
683000000 -3.669123e+000 -7.449738e+001 -4.821896e+001 -1.174857e+002 -4.797143e+001 -1.223995e+002 -3.649666e+000 -7.372379e+001
684000000 -3.668950e+000 -7.423180e+001 -4.721860e+001 -1.302163e+002 -4.734732e+001 -1.362655e+002 -3.616280e+000 -7.379295e+001
685000000 -3.658155e+000 -7.415547e+001 -4.688022e+001 -1.438209e+002 -4.761624e+001 -1.491889e+002 -3.578301e+000 -7.393193e+001
686000000 -3.646110e+000 -7.409749e+001 -4.701694e+001 -1.594322e+002 -4.737545e+001 -1.599927e+002 -3.545832e+000 -7.408726e+001
687000000 -3.622524e+000 -7.362953e+001 -4.725304e+001 -1.714499e+002 -4.782317e+001 -1.699734e+002 -3.517343e+000 -7.427612e+001
688000000 -3.584698e+000 -7.337236e+001 -4.757377e+001 1.722628e+002 -4.793234e+001 1.767189e+002 -3.498135e+000 -7.444575e+001
689000000 -3.543217e+000 -7.330470e+001 -4.927076e+001 1.599575e+002 -4.959648e+001 1.648545e+002 -3.471047e+000 -7.460392e+001
690000000 -3.468828e+000 -7.330692e+001 -5.202995e+001 1.529125e+002 -5.172369e+001 1.621882e+002 -3.453401e+000 -7.474386e+001
691000000 -3.407856e+000 -7.353716e+001 -5.413889e+001 1.651422e+002 -5.309994e+001 1.764805e+002 -3.433455e+000 -7.490251e+001
692000000 -3.358061e+000 -7.368483e+001 -5.232183e+001 -1.792304e+002 -5.188184e+001 -1.732536e+002 -3.428796e+000 -7.500678e+001
693000000 -3.331157e+000 -7.384489e+001 -5.120358e+001 -1.730353e+002 -4.929591e+001 -1.754084e+002 -3.412863e+000 -7.508926e+001
694000000 -3.290798e+000 -7.409168e+001 -4.920244e+001 -1.794052e+002 -4.744244e+001 1.793645e+002 -3.386134e+000 -7.515688e+001
695000000 -3.279100e+000 -7.425594e+001 -4.801345e+001 1.713860e+002 -4.626081e+001 1.661147e+002 -3.359547e+000 -7.528255e+001
696000000 -3.256148e+000 -7.432279e+001 -4.676519e+001 1.608967e+002 -4.568346e+001 1.528460e+002 -3.329107e+000 -7.543496e+001
697000000 -3.231013e+000 -7.447620e+001 -4.632027e+001 1.498753e+002 -4.558924e+001 1.392226e+002 -3.295040e+000 -7.560580e+001
698000000 -3.208716e+000 -7.470432e+001 -4.598328e+001 1.394676e+002 -4.584088e+001 1.282198e+002 -3.260729e+000 -7.586980e+001
699000000 -3.180158e+000 -7.507410e+001 -4.618386e+001 1.296238e+002 -4.672746e+001 1.207095e+002 -3.248926e+000 -7.615167e+001
700000000 -3.171498e+000 -7.526844e+001 -4.655927e+001 1.228374e+002 -4.731644e+001 1.172007e+002 -3.257055e+000 -7.637267e+001
701000000 -3.166176e+000 -7.556821e+001 -4.681584e+001 1.193377e+002 -4.712465e+001 1.156816e+002 -3.251092e+000 -7.658601e+001
702000000 -3.153968e+000 -7.597428e+001 -4.627938e+001 1.117160e+002 -4.694647e+001 1.125708e+002 -3.260618e+000 -7.651334e+001
703000000 -3.150461e+000 -7.644105e+001 -4.561671e+001 1.087007e+002 -4.593736e+001 1.085554e+002 -3.249959e+000 -7.653819e+001
704000000 -3.154600e+000 -7.679990e+001 -4.522330e+001 1.002822e+002 -4.536933e+001 1.032791e+002 -3.221632e+000 -7.652574e+001
705000000 -3.153606e+000 -7.704607e+001 -4.474096e+001 9.270945e+001 -4.434798e+001 9.599261e+001 -3.174700e+000 -7.662016e+001
706000000 -3.154973e+000 -7.725447e+001 -4.411217e+001 8.274635e+001 -4.359487e+001 8.425645e+001 -3.131847e+000 -7.676254e+001
707000000 -3.174819e+000 -7.776127e+001 -4.415939e+001 7.298354e+001 -4.320772e+001 7.345772e+001 -3.101997e+000 -7.703558e+001
708000000 -3.192099e+000 -7.801389e+001 -4.395558e+001 6.305381e+001 -4.304856e+001 6.324514e+001 -3.078315e+000 -7.726298e+001
709000000 -3.219940e+000 -7.804812e+001 -4.410845e+001 5.467455e+001 -4.289117e+001 5.106642e+001 -3.052321e+000 -7.748788e+001
710000000 -3.242768e+000 -7.797655e+001 -4.402680e+001 4.532756e+001 -4.297908e+001 3.915661e+001 -3.016581e+000 -7.770728e+001
711000000 -3.256112e+000 -7.790327e+001 -4.414554e+001 3.771767e+001 -4.336448e+001 2.783466e+001 -2.983767e+000 -7.795469e+001
712000000 -3.253178e+000 -7.770286e+001 -4.401186e+001 2.873390e+001 -4.400535e+001 1.746366e+001 -2.959394e+000 -7.828066e+001
713000000 -3.234301e+000 -7.746169e+001 -4.393102e+001 1.933719e+001 -4.451232e+001 9.633481e+000 -2.945040e+000 -7.865422e+001
714000000 -3.216436e+000 -7.717080e+001 -4.418634e+001 1.084705e+001 -4.501147e+001 1.360518e+000 -2.941095e+000 -7.899988e+001
715000000 -3.185478e+000 -7.709286e+001 -4.439984e+001 -1.416024e+000 -4.552455e+001 -6.504596e+000 -2.948165e+000 -7.923702e+001
716000000 -3.146707e+000 -7.717622e+001 -4.489365e+001 -1.327692e+001 -4.582891e+001 -1.450610e+001 -2.952208e+000 -7.947566e+001
717000000 -3.110854e+000 -7.712151e+001 -4.611142e+001 -2.307097e+001 -4.668407e+001 -2.339047e+001 -2.963745e+000 -7.963157e+001
718000000 -3.062099e+000 -7.717090e+001 -4.759924e+001 -3.041122e+001 -4.788412e+001 -2.704893e+001 -2.971001e+000 -7.972134e+001
719000000 -3.022465e+000 -7.712002e+001 -4.834651e+001 -3.027419e+001 -4.893157e+001 -3.066112e+001 -2.959093e+000 -7.974632e+001
720000000 -2.979924e+000 -7.728748e+001 -4.970819e+001 -3.381956e+001 -4.967470e+001 -2.982827e+001 -2.934822e+000 -7.984733e+001
721000000 -2.933653e+000 -7.748019e+001 -5.024343e+001 -3.431035e+001 -5.029681e+001 -2.825545e+001 -2.907697e+000 -8.000200e+001
722000000 -2.873907e+000 -7.758372e+001 -4.988437e+001 -2.416897e+001 -4.952988e+001 -2.306927e+001 -2.885201e+000 -8.019913e+001
723000000 -2.806997e+000 -7.768501e+001 -4.838772e+001 -2.854859e+001 -4.769205e+001 -2.652587e+001 -2.864292e+000 -8.045506e+001
724000000 -2.754992e+000 -7.816039e+001 -4.739012e+001 -3.795100e+001 -4.610464e+001 -3.966003e+001 -2.857905e+000 -8.071725e+001
725000000 -2.703727e+000 -7.851447e+001 -4.667427e+001 -4.908470e+001 -4.568810e+001 -5.776962e+001 -2.865113e+000 -8.101730e+001
726000000 -2.660583e+000 -7.887338e+001 -4.658303e+001 -6.197558e+001 -4.634950e+001 -7.207611e+001 -2.875270e+000 -8.111281e+001
727000000 -2.636625e+000 -7.930315e+001 -4.740788e+001 -7.564667e+001 -4.724163e+001 -8.523296e+001 -2.878813e+000 -8.116707e+001
728000000 -2.617097e+000 -7.973025e+001 -4.761255e+001 -8.670650e+001 -4.884880e+001 -9.396921e+001 -2.846972e+000 -8.110246e+001
729000000 -2.606919e+000 -8.025966e+001 -4.899805e+001 -9.519612e+001 -4.975119e+001 -9.961111e+001 -2.802194e+000 -8.114637e+001
730000000 -2.591044e+000 -8.054945e+001 -4.950286e+001 -1.027562e+002 -5.056953e+001 -1.040414e+002 -2.754637e+000 -8.136044e+001
731000000 -2.576308e+000 -8.069263e+001 -5.048405e+001 -1.151549e+002 -5.120249e+001 -1.138665e+002 -2.729764e+000 -8.169706e+001
732000000 -2.564877e+000 -8.112453e+001 -5.106625e+001 -1.290005e+002 -5.161142e+001 -1.249801e+002 -2.711322e+000 -8.206783e+001
733000000 -2.542404e+000 -8.149003e+001 -5.362844e+001 -1.456316e+002 -5.293583e+001 -1.417329e+002 -2.711622e+000 -8.235690e+001
734000000 -2.549151e+000 -8.176818e+001 -5.560462e+001 -1.736827e+002 -5.594323e+001 -1.672959e+002 -2.711493e+000 -8.261510e+001
735000000 -2.519807e+000 -8.203204e+001 -6.325379e+001 1.451581e+002 -6.001067e+001 1.536320e+002 -2.717438e+000 -8.275822e+001
736000000 -2.460311e+000 -8.213920e+001 -6.137273e+001 7.955216e+001 -6.195385e+001 8.200759e+001 -2.713760e+000 -8.295704e+001
737000000 -2.439573e+000 -8.229882e+001 -5.918264e+001 2.566409e+001 -5.831906e+001 3.935092e+001 -2.705633e+000 -8.308739e+001
738000000 -2.438060e+000 -8.250465e+001 -5.459184e+001 1.571807e+001 -5.354269e+001 1.846925e+001 -2.691870e+000 -8.329336e+001
739000000 -2.426372e+000 -8.269830e+001 -5.067754e+001 7.583128e-001 -4.989375e+001 -2.467316e+000 -2.679242e+000 -8.345273e+001
740000000 -2.420012e+000 -8.272411e+001 -4.823999e+001 -1.760806e+001 -4.763831e+001 -2.573543e+001 -2.666124e+000 -8.365005e+001
741000000 -2.426987e+000 -8.275191e+001 -4.648533e+001 -3.356974e+001 -4.627498e+001 -4.324560e+001 -2.650641e+000 -8.376624e+001
742000000 -2.426316e+000 -8.299795e+001 -4.524911e+001 -4.783794e+001 -4.568868e+001 -5.707310e+001 -2.627561e+000 -8.389169e+001
743000000 -2.425274e+000 -8.325265e+001 -4.420470e+001 -6.169781e+001 -4.527155e+001 -6.881430e+001 -2.598796e+000 -8.408948e+001
744000000 -2.484095e+000 -8.345882e+001 -4.351200e+001 -7.601875e+001 -4.471087e+001 -7.838714e+001 -2.574349e+000 -8.434692e+001
745000000 -2.524341e+000 -8.353523e+001 -4.299039e+001 -8.901612e+001 -4.440911e+001 -8.798144e+001 -2.555784e+000 -8.465736e+001
746000000 -2.515777e+000 -8.350438e+001 -4.303019e+001 -9.954554e+001 -4.439360e+001 -9.580135e+001 -2.542381e+000 -8.497634e+001
747000000 -2.550231e+000 -8.375125e+001 -4.361904e+001 -1.072211e+002 -4.414892e+001 -1.016657e+002 -2.527866e+000 -8.532041e+001
748000000 -2.544443e+000 -8.457692e+001 -4.291495e+001 -1.123207e+002 -4.341458e+001 -1.061561e+002 -2.530406e+000 -8.579365e+001
749000000 -2.538997e+000 -8.409748e+001 -4.210064e+001 -1.180065e+002 -4.218215e+001 -1.114059e+002 -2.520595e+000 -8.590100e+001
750000000 -2.514936e+000 -8.421862e+001 -4.141692e+001 -1.265307e+002 -4.097494e+001 -1.204045e+002 -2.513617e+000 -8.619734e+001
751000000 -2.515073e+000 -8.471248e+001 -4.099459e+001 -1.370654e+002 -4.017742e+001 -1.327985e+002 -2.511669e+000 -8.650861e+001
